Circuit: * D:\Usuário\Documents\GitHub\EEL7303\Laboratorios\LAB06\Simulação\LAB06.asc

Direct Newton iteration for .op point succeeded.
Semiconductor Device Operating Points:
                        --- Bipolar Transistors ---
Name:       q1
Model:    bc548b
Ib:       2.80e-04
Ic:       8.45e-03
Vbe:      7.24e-01
Vbc:      6.20e-01
Vce:      1.04e-01
BetaDC:   3.02e+01
Gm:       3.08e-01
Rpi:      8.98e+02
Rx:       0.00e+00
Ro:       1.14e+02
Cbe:      1.72e-10
Cbc:      1.06e-10
Cjs:      0.00e+00
BetaAC:   2.76e+02
Cbx:      0.00e+00
Ft:       1.76e+08



Date: Fri Jun 28 08:49:18 2019
Total elapsed time: 0.078 seconds.

tnom = 27
temp = 27
method = trap
totiter = 9
traniter = 0
tranpoints = 0
accept = 0
rejected = 0
matrix size = 13
fillins = 0
solver = Normal
Matrix Compiler1:      33 opcodes
Matrix Compiler2: 979 bytes object code size
