Circuit: * D:\Usuário\Documents\GitHub\EEL7303\Laboratorios\LAB08\Simulação\Lab08.asc

Warning: Multiple definitions of model "ca3046" Type: BJT
Direct Newton iteration for .op point succeeded.
Semiconductor Device Operating Points:
                        --- Bipolar Transistors ---
Name:       q14         q13         q11         q9          q8
Model:    ca3046      ca3046      ca3046      ca3046      ca3046
Ib:       1.54e-07    2.03e-07    7.59e-06    4.54e-07    7.55e-06
Ic:       7.64e-06    1.09e-05    7.35e-04    2.98e-05    7.32e-04
Vbe:      5.27e-01    5.36e-01    6.48e-01    5.62e-01    6.47e-01
Vbc:     -8.83e+00   -9.22e+00   -5.27e-01   -8.79e+00   -5.67e-01
Vce:      9.35e+00    9.76e+00    1.17e+00    9.35e+00    1.21e+00
BetaDC:   4.95e+01    5.38e+01    9.69e+01    6.56e+01    9.69e+01
Gm:       2.95e-04    4.23e-04    2.80e-02    1.15e-03    2.79e-02
Rpi:      2.16e+05    1.62e+05    3.81e+03    7.04e+04    3.83e+03
Rx:       0.00e+00    0.00e+00    0.00e+00    0.00e+00    0.00e+00
Ro:       1.42e+07    9.94e+06    1.36e+05    3.64e+06    1.36e+05
Cbe:      1.55e-12    1.60e-12    9.36e-12    1.83e-12    9.33e-12
Cbc:      4.24e-13    4.19e-13    8.32e-13    4.25e-13    8.24e-13
Cjs:      0.00e+00    0.00e+00    0.00e+00    0.00e+00    0.00e+00
BetaAC:   6.38e+01    6.84e+01    1.07e+02    8.09e+01    1.07e+02
Cbx:      0.00e+00    0.00e+00    0.00e+00    0.00e+00    0.00e+00
Ft:       2.38e+07    3.34e+07    4.37e+08    8.12e+07    4.37e+08

Name:       q7          q6          q4          q3          q1
Model:    ca3046      ca3046      ca3046      ca3046      ca3046
Ib:       7.55e-06    7.55e-06    7.55e-06    7.75e-06    7.75e-06
Ic:       7.32e-04    7.32e-04    7.32e-04    7.51e-04    7.51e-04
Vbe:      6.47e-01    6.47e-01    6.47e-01    6.48e-01    6.48e-01
Vbc:     -5.67e-01   -5.62e-01   -5.67e-01   -3.41e-01   -3.41e-01
Vce:      1.21e+00    1.21e+00    1.21e+00    9.89e-01    9.89e-01
BetaDC:   9.69e+01    9.69e+01    9.69e+01    9.70e+01    9.70e+01
Gm:       2.79e-02    2.79e-02    2.79e-02    2.86e-02    2.86e-02
Rpi:      3.83e+03    3.83e+03    3.83e+03    3.73e+03    3.73e+03
Rx:       0.00e+00    0.00e+00    0.00e+00    0.00e+00    0.00e+00
Ro:       1.36e+05    1.36e+05    1.36e+05    1.33e+05    1.33e+05
Cbe:      9.33e-12    9.33e-12    9.33e-12    9.52e-12    9.52e-12
Cbc:      8.24e-13    8.25e-13    8.24e-13    8.77e-13    8.77e-13
Cjs:      0.00e+00    0.00e+00    0.00e+00    0.00e+00    0.00e+00
BetaAC:   1.07e+02    1.07e+02    1.07e+02    1.07e+02    1.07e+02
Cbx:      0.00e+00    0.00e+00    0.00e+00    0.00e+00    0.00e+00
Ft:       4.37e+08    4.37e+08    4.37e+08    4.37e+08    4.37e+08

Name:       q5          q2
Model:    ca3046      ca3046
Ib:       7.75e-06    7.75e-06
Ic:       7.48e-04    7.51e-04
Vbe:      6.48e-01    6.48e-01
Vbc:      0.00e+00   -3.41e-01
Vce:      6.48e-01    9.89e-01
BetaDC:   9.66e+01    9.70e+01
Gm:       2.85e-02    2.86e-02
Rpi:      3.73e+03    3.73e+03
Rx:       0.00e+00    0.00e+00
Ro:       1.33e+05    1.33e+05
Cbe:      9.50e-12    9.52e-12
Cbc:      9.95e-13    8.77e-13
Cjs:      0.00e+00    0.00e+00
BetaAC:   1.06e+02    1.07e+02
Cbx:      0.00e+00    0.00e+00
Ft:       4.32e+08    4.37e+08



Date: Sat May 18 11:08:09 2019
Total elapsed time: 0.046 seconds.

tnom = 27
temp = 27
method = trap
totiter = 12
traniter = 0
tranpoints = 0
accept = 0
rejected = 0
matrix size = 27
fillins = 0
solver = Normal
Matrix Compiler1: 1.73 KB object code size
Matrix Compiler2: 2.35 KB object code size
