Circuit: * D:\Usuário\Documents\GitHub\EEL7303\Laboratorios\LAB10\Simulação\Lab10.asc

WARNING: Less than two connections to node N007.  This node is used by R4.
WARNING: Less than two connections to node N015.  This node is used by R10.
Early termination of direct N-R iteration.
Direct Newton iteration failed to find .op point.  (Use ".option noopiter" to skip.)
Starting Gmin stepping
Gmin = 10
vernier = 0.5
vernier = 0.25
vernier = 0.125
Gmin = 5.49741
vernier = 0.0625
vernier = 0.03125
vernier = 0.015625
vernier = 0.0078125
Gmin = 5.51716
vernier = 0.00390625
vernier = 0.00195313
vernier = 0.000976563
vernier = 0.000488281
Gmin = 5.50104
Gmin = 0
Gmin stepping failed

Starting source stepping with srcstepmethod=0
Source Step = 3.0303%
Source Step = 33.3333%
Source Step = 63.6364%
Source Step = 93.9394%
Source stepping succeeded in finding the operating point.

Semiconductor Device Operating Points:
                        --- Diodes ---
Name:    d:u8:p      d:u8:ln     d:u8:lp     d:u8:e      d:u8:c
Model:    u8:dx       u8:dx       u8:dx       u8:dx       u8:dx
Id:     -2.40e-11   -2.50e-11   -2.50e-11   -9.80e-12   -9.80e-12
Vd:     -2.40e+01   -2.50e+01   -2.50e+01   -9.80e+00   -9.80e+00
Req:     1.00e+12    1.00e+12    1.00e+12    1.00e+12    1.00e+12
CAP:     0.00e+00    0.00e+00    0.00e+00    0.00e+00    0.00e+00

Name:    d:u7:p      d:u7:ln     d:u7:lp     d:u7:e      d:u7:c
Model:    u7:dx       u7:dx       u7:dx       u7:dx       u7:dx
Id:     -2.40e-11   -2.50e-11   -2.50e-11   -9.80e-12   -9.80e-12
Vd:     -2.40e+01   -2.50e+01   -2.50e+01   -9.80e+00   -9.80e+00
Req:     1.00e+12    1.00e+12    1.00e+12    1.00e+12    1.00e+12
CAP:     0.00e+00    0.00e+00    0.00e+00    0.00e+00    0.00e+00

Name:    d:u6:p      d:u6:ln     d:u6:lp     d:u6:e      d:u6:c
Model:    u6:dx       u6:dx       u6:dx       u6:dx       u6:dx
Id:     -2.40e-11   -2.50e-11   -2.50e-11   -9.80e-12   -9.80e-12
Vd:     -2.40e+01   -2.50e+01   -2.50e+01   -9.80e+00   -9.80e+00
Req:     1.00e+12    1.00e+12    1.00e+12    1.00e+12    1.00e+12
CAP:     0.00e+00    0.00e+00    0.00e+00    0.00e+00    0.00e+00

Name:    d:u5:p      d:u5:ln     d:u5:lp     d:u5:e      d:u5:c
Model:    u5:dx       u5:dx       u5:dx       u5:dx       u5:dx
Id:     -2.40e-11   -2.50e-11   -2.50e-11   -9.80e-12   -9.80e-12
Vd:     -2.40e+01   -2.50e+01   -2.50e+01   -9.80e+00   -9.80e+00
Req:     1.00e+12    1.00e+12    1.00e+12    1.00e+12    1.00e+12
CAP:     0.00e+00    0.00e+00    0.00e+00    0.00e+00    0.00e+00

Name:      d2          d1        d:u4:p      d:u4:ln     d:u4:lp
Model:   1n4148      1n4148       u4:dx       u4:dx       u4:dx
Id:     -2.52e-09   -2.52e-09   -2.40e-11   -2.50e-11   -2.50e-11
Vd:     -2.90e+00   -2.90e+00   -2.40e+01   -2.50e+01   -2.50e+01
Req:     1.00e+12    1.00e+12    1.00e+12    1.00e+12    1.00e+12
CAP:     2.32e-12    2.32e-12    0.00e+00    0.00e+00    0.00e+00

Name:    d:u4:e      d:u4:c      d:u3:p      d:u3:ln     d:u3:lp
Model:    u4:dx       u4:dx       u3:dx       u3:dx       u3:dx
Id:     -9.80e-12   -9.80e-12   -2.40e-11   -2.50e-11   -2.50e-11
Vd:     -9.80e+00   -9.80e+00   -2.40e+01   -2.50e+01   -2.50e+01
Req:     1.00e+12    1.00e+12    1.00e+12    1.00e+12    1.00e+12
CAP:     0.00e+00    0.00e+00    0.00e+00    0.00e+00    0.00e+00

Name:    d:u3:e      d:u3:c      d:u2:p      d:u2:ln     d:u2:lp
Model:    u3:dx       u3:dx       u2:dx       u2:dx       u2:dx
Id:     -9.80e-12   -9.80e-12   -2.40e-11   -2.50e-11   -2.50e-11
Vd:     -9.80e+00   -9.80e+00   -2.40e+01   -2.50e+01   -2.50e+01
Req:     1.00e+12    1.00e+12    1.00e+12    1.00e+12    1.00e+12
CAP:     0.00e+00    0.00e+00    0.00e+00    0.00e+00    0.00e+00

Name:    d:u2:e      d:u2:c      d:u1:p      d:u1:ln     d:u1:lp
Model:    u2:dx       u2:dx       u1:dx       u1:dx       u1:dx
Id:     -9.80e-12   -9.80e-12   -2.40e-11   -2.50e-11   -2.50e-11
Vd:     -9.80e+00   -9.80e+00   -2.40e+01   -2.50e+01   -2.50e+01
Req:     1.00e+12    1.00e+12    1.00e+12    1.00e+12    1.00e+12
CAP:     0.00e+00    0.00e+00    0.00e+00    0.00e+00    0.00e+00

Name:    d:u1:e      d:u1:c
Model:    u1:dx       u1:dx
Id:     -9.80e-12   -9.80e-12
Vd:     -9.80e+00   -9.80e+00
Req:     1.00e+12    1.00e+12
CAP:     0.00e+00    0.00e+00

                        --- JFET Transistors ---
Name:    j:u8:2      j:u8:1      j:u7:2      j:u7:1      j:u6:2
Model:    u8:jx       u8:jx       u7:jx       u7:jx       u6:jx
Id:     -9.77e-05   -9.77e-05   -9.77e-05   -9.77e-05   -9.77e-05
Vgs:     3.99e-01    3.99e-01    3.99e-01    3.99e-01    3.99e-01
Vds:    -1.13e+01   -1.13e+01   -1.13e+01   -1.13e+01   -1.13e+01
Gm:      3.25e-04    3.25e-04    3.25e-04    3.25e-04    3.25e-04
Gds:     0.00e+00    0.00e+00    0.00e+00    0.00e+00    0.00e+00
Cgs:     0.00e+00    0.00e+00    0.00e+00    0.00e+00    0.00e+00
Cgd:     0.00e+00    0.00e+00    0.00e+00    0.00e+00    0.00e+00

Name:    j:u6:1      j:u5:2      j:u5:1      j:u4:2      j:u4:1
Model:    u6:jx       u5:jx       u5:jx       u4:jx       u4:jx
Id:     -9.77e-05   -9.77e-05   -9.77e-05   -9.77e-05   -9.77e-05
Vgs:     3.99e-01    3.99e-01    3.99e-01    3.99e-01    3.99e-01
Vds:    -1.13e+01   -1.13e+01   -1.13e+01   -1.13e+01   -1.13e+01
Gm:      3.25e-04    3.25e-04    3.25e-04    3.25e-04    3.25e-04
Gds:     0.00e+00    0.00e+00    0.00e+00    0.00e+00    0.00e+00
Cgs:     0.00e+00    0.00e+00    0.00e+00    0.00e+00    0.00e+00
Cgd:     0.00e+00    0.00e+00    0.00e+00    0.00e+00    0.00e+00

Name:    j:u3:2      j:u3:1      j:u2:2      j:u2:1      j:u1:2
Model:    u3:jx       u3:jx       u2:jx       u2:jx       u1:jx
Id:     -9.77e-05   -9.77e-05   -9.77e-05   -9.77e-05   -9.77e-05
Vgs:     3.99e-01    3.99e-01    3.99e-01    3.99e-01    3.99e-01
Vds:    -1.13e+01   -1.13e+01   -1.13e+01   -1.13e+01   -1.13e+01
Gm:      3.25e-04    3.25e-04    3.25e-04    3.25e-04    3.25e-04
Gds:     0.00e+00    0.00e+00    0.00e+00    0.00e+00    0.00e+00
Cgs:     0.00e+00    0.00e+00    0.00e+00    0.00e+00    0.00e+00
Cgd:     0.00e+00    0.00e+00    0.00e+00    0.00e+00    0.00e+00

Name:    j:u1:1
Model:    u1:jx
Id:     -9.77e-05
Vgs:     3.99e-01
Vds:    -1.13e+01
Gm:      3.25e-04
Gds:     0.00e+00
Cgs:     0.00e+00
Cgd:     0.00e+00



Date: Tue Jun 04 13:17:29 2019
Total elapsed time: 0.374 seconds.

tnom = 27
temp = 27
method = trap
totiter = 1645
traniter = 0
tranpoints = 0
accept = 0
rejected = 0
matrix size = 200
fillins = 1147
solver = Normal
Matrix Compiler1:    5805 opcodes
Matrix Compiler2: 37.70 KB object code size  5.3/4.5/[1.3]

