Circuit: * D:\Usuário\Documents\GitHub\EEL7303\Laboratorios\LAB04\Simulação\Lab04.asc

Direct Newton iteration for .op point succeeded.
Semiconductor Device Operating Points:
                        --- Bipolar Transistors ---
Name:       q2          q1
Model:    bc556b      bc546b
Ib:       5.29e-12   -5.07e-12
Ic:      -5.33e-12    5.09e-12
Vbe:     -2.22e-09   -2.22e-09
Vbc:      5.00e+00   -5.00e+00
Vce:     -5.00e+00    5.00e+00
BetaDC:  -1.01e+00   -1.00e+00
Gm:       1.81e-12    9.88e-13
Rpi:      7.62e+11    9.16e+11
Rx:       1.00e+00    1.00e+00
Ro:       5.51e+14    2.64e+15
Cbe:      1.23e-11    1.36e-11
Cbc:      1.69e-12    1.07e-12
Cjs:      0.00e+00    0.00e+00
BetaAC:   1.38e+00    9.05e-01
Cbx:      9.95e-13    6.58e-13
Ft:       1.33e-02    4.84e-03


Note: .fourier statements are only valid with a .tran command.
      No Fourier analysis performed.


Date: Thu Sep 05 12:04:34 2019
Total elapsed time: 0.062 seconds.

tnom = 27
temp = 27
method = trap
totiter = 5
traniter = 0
tranpoints = 0
accept = 0
rejected = 0
matrix size = 16
fillins = 8
solver = Normal
Matrix Compiler1:      78 opcodes
Matrix Compiler2: 1.37 KB object code size
