Circuit: * D:\Usuário\Documents\GitHub\EEL7303\Laboratorios\LAB04\Simulação\Lab04_2.asc

Direct Newton iteration for .op point succeeded.
Semiconductor Device Operating Points:
                        --- Bipolar Transistors ---
Name:       q2          q3          q1
Model:    bc556b      bc546b      bc546b
Ib:      -9.29e-05    5.94e-07    2.78e-05
Ic:      -2.78e-02    1.71e-04    8.02e-03
Vbe:     -7.33e-01    5.92e-01    6.96e-01
Vbc:      3.55e+00   -1.20e+00   -4.30e+00
Vce:     -4.28e+00    1.79e+00    5.00e+00
BetaDC:   3.00e+02    2.88e+02    2.89e+02
Gm:       8.65e-01    6.54e-03    2.92e-01
Rpi:      2.82e+02    4.41e+04    9.40e+02
Rx:       1.00e+00    1.00e+00    1.00e+00
Ro:       8.68e+02    3.68e+05    8.20e+03
Cbe:      6.21e-10    3.29e-11    2.00e-10
Cbc:      1.90e-12    1.53e-12    1.12e-12
Cjs:      0.00e+00    0.00e+00    0.00e+00
BetaAC:   2.44e+02    2.89e+02    2.74e+02
Cbx:      1.12e-12    9.43e-13    6.86e-13
Ft:       2.21e+08    2.95e+07    2.30e+08


Note: .fourier statements are only valid with a .tran command.
      No Fourier analysis performed.


Date: Thu Sep 05 13:32:02 2019
Total elapsed time: 0.062 seconds.

tnom = 27
temp = 27
method = trap
totiter = 9
traniter = 0
tranpoints = 0
accept = 0
rejected = 0
matrix size = 23
fillins = 20
solver = Normal
Matrix Compiler1:     147 opcodes
Matrix Compiler2: 2.27 KB object code size
