Circuit: * D:\Usuário\Documents\GitHub\EEL7303\Laboratorios\LAB01\Simulação\Draft1.asc

Direct Newton iteration for .op point succeeded.
Semiconductor Device Operating Points:
                        --- Bipolar Transistors ---
Name:       q1
Model:    bc547b
Ib:      -1.21e-11
Ic:       1.21e-11
Vbe:     -2.84e-11
Vbc:     -1.20e+01
Vce:      1.20e+01
BetaDC:  -1.00e+00
Gm:       1.09e-12
Rpi:      9.16e+11
Rx:       1.00e+00
Ro:       2.64e+15
Cbe:      1.36e-11
Cbc:      8.37e-13
Cjs:      0.00e+00
BetaAC:   9.98e-01
Cbx:      5.14e-13
Ft:       8.03e-04



Date: Mon Apr 22 11:53:16 2019
Total elapsed time: 0.046 seconds.

tnom = 27
temp = 27
method = trap
totiter = 9
traniter = 0
tranpoints = 0
accept = 0
rejected = 0
matrix size = 8
fillins = 0
solver = Normal
Matrix Compiler1:      21 opcodes
Matrix Compiler2: 588 bytes object code size
