Circuit: * D:\Usuário\Documents\GitHub\EEL7303\Laboratorios\LAB02\Simulação\Lab02.asc

Warning: Multiple definitions of model "ca3046" Type: BJT
Warning: Multiple definitions of model "ca3046" Type: BJT
Direct Newton iteration failed to find .op point.  (Use ".option noopiter" to skip.)
Starting Gmin stepping
Gmin = 10
Gmin = 1.07374
vernier = 0.5
vernier = 0.25
vernier = 0.125
vernier = 0.0625
Gmin = 1.08884
vernier = 0.03125
vernier = 0.015625
Gmin = 1.03122
vernier = 0.0078125
vernier = 0.00390625
Gmin = 1.01823
vernier = 0.00520833
vernier = 0.00260417
Gmin = 1.01162
vernier = 0.00130208
vernier = 0.00173611
Gmin = 1.00866
vernier = 0.000868055
vernier = 0.00115741
vernier = 0.000578703
Gmin = 1.00743
vernier = 0.000771604
vernier = 0.000578703
Gmin = 1.00611
vernier = 0.000771604
vernier = 0.000578703
vernier = 0.000434027
Gmin = 1.00528
vernier = 0.000578703
vernier = 0.000434027
Gmin = 0
Gmin = 0
Gmin stepping failed

Starting source stepping with srcstepmethod=0
Source Step = 3.0303%
Source Step = 33.3333%
Source Step = 63.6364%
Source Step = 93.9394%
Source stepping succeeded in finding the operating point.

Semiconductor Device Operating Points:
                        --- Diodes ---
Name:    d:u1:3      d:u1:4      d:u1:6      d:u1:5      d:u1:2
Model:    u1:dx       u1:dx       u1:dx       u1:dx       u1:dx
Id:     -1.46e-13   -2.14e-13    1.21e-04    8.72e-06   -1.16e-11
Vd:     -1.46e-01   -2.14e-01    6.81e-01    6.16e-01   -1.16e+01
Req:     1.00e+12    1.00e+12    2.06e+02    2.85e+03    1.00e+12
CAP:     0.00e+00    0.00e+00    0.00e+00    0.00e+00    0.00e+00

Name:    d:u1:1        d1
Model:    u1:dx      1n4148
Id:     -9.10e-12   -8.48e-10
Vd:     -9.10e+00   -6.19e-01
Req:     1.00e+12    9.87e+11
CAP:     0.00e+00    3.28e-12

                        --- Bipolar Transistors ---
Name:     q:u1:2      q:u1:1        q2          q1
Model:     u1:qx       u1:qx      ca3046      ca3046
Ib:       7.99e-08    7.99e-08    2.00e-07    1.33e-06
Ic:       4.99e-05    4.99e-05    9.82e-06    1.00e-04
Vbe:      7.16e-01    7.16e-01    5.62e-01    6.19e-01
Vbc:     -1.14e+01   -1.14e+01    0.00e+00    0.00e+00
Vce:      1.21e+01    1.21e+01    5.62e-01    6.19e-01
BetaDC:   6.25e+02    6.25e+02    4.90e+01    7.54e+01
Gm:       2.01e-03    2.01e-03    3.95e-04    4.03e-03
Rpi:      3.11e+05    3.11e+05    1.58e+05    2.21e+04
Rx:       0.00e+00    0.00e+00    0.00e+00    0.00e+00
Ro:       0.00e+00    0.00e+00    1.01e+07    9.91e+05
Cbe:      0.00e+00    0.00e+00    1.58e-12    2.65e-12
Cbc:      0.00e+00    0.00e+00    9.81e-13    9.81e-13
Cjs:      0.00e+00    0.00e+00    0.00e+00    0.00e+00
BetaAC:   6.25e+02    6.25e+02    6.24e+01    8.90e+01
Cbx:      0.00e+00    0.00e+00    0.00e+00    0.00e+00
Ft:       0.00e+00    0.00e+00    2.45e+07    1.76e+08


