Circuit: * C:\Users\Gustavo\Documents\GitHub\EEL7303\Laboratorios\LAB04\Lab04.asc

WARNING: Less than two connections to node N002.  This node is used by RL.
Direct Newton iteration for .op point succeeded.
Semiconductor Device Operating Points:
                        --- Bipolar Transistors ---
Name:       q2          q1
Model:    bc556b      bc546b
Ib:       5.03e-12   -5.06e-12
Ic:       2.87e-14    5.09e-12
Vbe:      5.00e+00    1.39e-03
Vbc:      1.39e-03   -5.00e+00
Vce:      5.00e+00    5.00e+00
BetaDC:   5.72e-03   -1.01e+00
Gm:      -1.61e-12    1.04e-12
Rpi:      1.00e+12    9.13e+11
Rx:       1.00e+00    1.00e+00
Ro:       6.20e+11    2.51e+15
Cbe:      5.32e-12    1.36e-11
Cbc:      6.76e-12    1.07e-12
Cjs:      0.00e+00    0.00e+00
BetaAC:  -1.61e+00    9.51e-01
Cbx:      3.99e-12    6.58e-13
Ft:       1.25e-02    3.51e-03



Date: Thu Apr 11 22:23:56 2019
Total elapsed time: 0.161 seconds.

tnom = 27
temp = 27
method = trap
totiter = 31
traniter = 0
tranpoints = 0
accept = 0
rejected = 0
matrix size = 17
fillins = 4
solver = Normal
Matrix Compiler1:      67 opcodes
Matrix Compiler2: 1.34 KB object code size
