Circuit: * D:\Usuário\Documents\GitHub\EEL7303\Laboratorios\LAB03\Simulação\Lab03.asc

Warning: Multiple definitions of model "ca3046" Type: BJT
Direct Newton iteration for .op point succeeded.
Semiconductor Device Operating Points:
                        --- Bipolar Transistors ---
Name:       q4          q5          q3          q2          q1
Model:    ca3046      ca3046      ca3046      ca3046      ca3046
Ib:       5.46e-06    5.46e-06    4.60e-05    2.25e-05    2.25e-05
Ic:       5.08e-04    5.08e-04    5.05e-03    2.50e-03    2.50e-03
Vbe:      6.38e-01    6.38e-01    6.99e-01    6.79e-01    6.79e-01
Vbc:      0.00e+00    0.00e+00   -4.91e+00   -7.00e+00   -7.00e+00
Vce:      6.38e-01    6.38e-01    5.61e+00    7.67e+00    7.67e+00
BetaDC:   9.30e+01    9.30e+01    1.10e+02    1.11e+02    1.11e+02
Gm:       1.94e-02    1.94e-02    1.78e-01    9.23e-02    9.23e-02
Rpi:      5.35e+03    5.35e+03    6.02e+02    1.25e+03    1.25e+03
Rx:       0.00e+00    0.00e+00    0.00e+00    0.00e+00    0.00e+00
Ro:       1.96e+05    1.96e+05    2.06e+04    4.25e+04    4.25e+04
Cbe:      6.98e-12    6.98e-12    5.15e-11    2.73e-11    2.73e-11
Cbc:      9.94e-13    9.94e-13    5.07e-13    4.56e-13    4.56e-13
Cjs:      0.00e+00    0.00e+00    0.00e+00    0.00e+00    0.00e+00
BetaAC:   1.04e+02    1.04e+02    1.07e+02    1.15e+02    1.15e+02
Cbx:      0.00e+00    0.00e+00    0.00e+00    0.00e+00    0.00e+00
Ft:       3.88e+08    3.88e+08    5.46e+08    5.30e+08    5.30e+08



Date: Fri Apr 05 08:31:06 2019
Total elapsed time: 0.047 seconds.

tnom = 27
temp = 27
method = trap
totiter = 7
traniter = 0
tranpoints = 0
accept = 0
rejected = 0
matrix size = 22
fillins = 0
solver = Normal
Matrix Compiler1: 1.24 KB object code size
Matrix Compiler2: 1.72 KB object code size
