Circuit: * D:\Usuário\Documents\GitHub\EEL7303\Laboratorios\LAB03\Simulação\Lab03.asc

Warning: Multiple definitions of model "ca3046" Type: BJT
WARNING: Less than two connections to node VO2-VO1.  This node is used by R5.
Direct Newton iteration for .op point succeeded.
Semiconductor Device Operating Points:
                        --- Bipolar Transistors ---
Name:       q4          q5          q3          q2          q1
Model:    ca3046      ca3046      ca3046      ca3046      ca3046
Ib:       5.47e-06    5.47e-06    4.30e-05    2.11e-05    2.11e-05
Ic:       5.09e-04    5.09e-04    4.73e-03    2.34e-03    2.34e-03
Vbe:      6.38e-01    6.38e-01    6.97e-01    6.77e-01    6.77e-01
Vbc:      0.00e+00    0.00e+00   -4.90e+00   -6.85e+00   -6.85e+00
Vce:      6.38e-01    6.38e-01    5.59e+00    7.52e+00    7.52e+00
BetaDC:   9.31e+01    9.31e+01    1.10e+02    1.11e+02    1.11e+02
Gm:       1.95e-02    1.95e-02    1.68e-01    8.66e-02    8.66e-02
Rpi:      5.34e+03    5.34e+03    6.45e+02    1.33e+03    1.33e+03
Rx:       0.00e+00    0.00e+00    0.00e+00    0.00e+00    0.00e+00
Ro:       1.95e+05    1.95e+05    2.20e+04    4.53e+04    4.53e+04
Cbe:      6.99e-12    6.99e-12    4.85e-11    2.57e-11    2.57e-11
Cbc:      9.94e-13    9.94e-13    5.07e-13    4.59e-13    4.59e-13
Cjs:      0.00e+00    0.00e+00    0.00e+00    0.00e+00    0.00e+00
BetaAC:   1.04e+02    1.04e+02    1.08e+02    1.15e+02    1.15e+02
Cbx:      0.00e+00    0.00e+00    0.00e+00    0.00e+00    0.00e+00
Ft:       3.88e+08    3.88e+08    5.45e+08    5.27e+08    5.27e+08


Note: .fourier statements are only valid with a .tran command.
      No Fourier analysis performed.


Date: Fri Aug 30 09:00:21 2019
Total elapsed time: 0.078 seconds.

tnom = 27
temp = 27
method = trap
totiter = 7
traniter = 0
tranpoints = 0
accept = 0
rejected = 0
matrix size = 21
fillins = 0
solver = Normal
Matrix Compiler1:      71 opcodes
Matrix Compiler2: 1.63 KB object code size
